
T17EC 000:292 SEGGER J-Link V4.91b (beta) Log File (0003ms, 0273ms total)
T17EC 000:292 DLL Compiled: Sep 15 2014 09:17:56 (0003ms, 0273ms total)
T17EC 000:292 Logging started @ 2016-05-11 10:58 (0003ms, 0273ms total)
T17EC 000:295 JLINK_SetWarnOutHandler(...) (0000ms, 0273ms total)
T17EC 000:295 JLINK_OpenEx(...)
Firmware: J-Link V9 compiled Sep 18 2015 19:53:12
Hardware: V9.40
S/N: 59401999
Feature(s): RDI, GDB, FlashDL, FlashBP, JFlash  returns O.K. (0273ms, 0546ms total)
T17EC 000:568 JLINK_SetErrorOutHandler(...) (0000ms, 0546ms total)
T17EC 000:568 JLINK_ExecCommand("ProjectFile = "E:\CompanyFiles\原始功能代码-功能实现\20160330系统库测试\20160530系统库测试设备端移植程序\320.IPL6086-S0 -智能触摸面板（自定义场景6按键方形面板）\Trunk\BootLoader_1_Library\BootLoader Source\STM32L15x_Medium\Project\JLinkSettings.ini"", ...)  returns 0x00 (0003ms, 0549ms total)
T17EC 000:598 JLINK_ExecCommand("Device = STM32L151CB", ...)Device "STM32L151CB" selected (132 KB flash, 16 KB RAM).  returns 0x00 (0006ms, 0555ms total)
T17EC 000:604 JLINK_ExecCommand("DisableConnectionTimeout", ...)  returns 0x01 (0000ms, 0555ms total)
T17EC 000:604 JLINK_GetHardwareVersion()  returns 0x16F30 (0000ms, 0555ms total)
T17EC 000:604 JLINK_GetDLLVersion()  returns 49102 (0000ms, 0555ms total)
T17EC 000:604 JLINK_GetFirmwareString(...) (0000ms, 0555ms total)
T17EC 000:614 JLINK_GetDLLVersion()  returns 49102 (0000ms, 0555ms total)
T17EC 000:614 JLINK_GetCompileDateTime() (0000ms, 0555ms total)
T17EC 000:617 JLINK_GetFirmwareString(...) (0000ms, 0555ms total)
T17EC 000:619 JLINK_GetHardwareVersion()  returns 0x16F30 (0000ms, 0555ms total)
T17EC 000:627 JLINK_TIF_Select(JLINKARM_TIF_JTAG)  returns 0x00 (0001ms, 0556ms total)
T17EC 000:628 JLINK_SetSpeed(2000) (0001ms, 0557ms total)
T17EC 000:629 JLINK_GetIdData(...) >0x2F8 JTAG>TotalIRLen = 9, IRPrint = 0x0011 >0x30 JTAG> >0x210 JTAG> >0x40 JTAG> >0x40 JTAG> >0x40 JTAG> >0x30 JTAG> >0x40 JTAG> >0x40 JTAG> >0x40 JTAG> >0x40 JTAG> >0x40 JTAG> >0x40 JTAG> >0x40 JTAG> >0x40 JTAG> >0x40 JTAG> >0x40 JTAG> >0x40 JTAG> >0x2F8 JTAG>TotalIRLen = 9, IRPrint = 0x0011 >0x30 JTAG> >0x210 JTAG> >0x70 JTAG> >0x40 JTAG> >0x40 JTAG> >0x40 JTAG> >0x50 JTAG> >0x80 JTAG> >0x40 JTAG> >0x30 JTAG> >0x40 JTAG> >0x40 JTAG> >0x30 JTAG> >0x40 JTAG>
 >0x50 JTAG>Found Cortex-M3 r2p0, Little endian. -- CPU_WriteMem(4 bytes @ 0xE0002000) -- CPU_ReadMem(4 bytes @ 0xE000EDF0) -- CPU_ReadMem(4 bytes @ 0xE0002000)FPUnit: 6 code (BP) slots and 2 literal slots -- CPU_ReadMem(4 bytes @ 0xE000EDFC) -- CPU_ReadMem(4 bytes @ 0xE0001000) -- CPU_WriteMem(4 bytes @ 0xE0001000) -- CPU_ReadMem(4 bytes @ 0xE000ED88) -- CPU_WriteMem(4 bytes @ 0xE000ED88) -- CPU_ReadMem(4 bytes @ 0xE000ED88) -- CPU_WriteMem(4 bytes @ 0xE000ED88) -- CPU_ReadMem(4 bytes @ 0xE00FF010)
TPIU fitted. -- CPU_ReadMem(4 bytes @ 0xE00FF014)ETM fitted. -- CPU_ReadMem(4 bytes @ 0xE00FF018) ScanLen=9 NumDevices=2 aId[0]=0x4BA00477 aIrRead[0]=0 aScanLen[0]=0 aScanRead[0]=0 (0029ms, 0586ms total)
T17EC 000:658 JLINK_JTAG_GetDeviceID(DeviceIndex = 0)  returns 0x4BA00477 (0000ms, 0586ms total)
T17EC 000:658 JLINK_JTAG_GetDeviceInfo(DeviceIndex = 0)  returns 0x00 (0000ms, 0586ms total)
T17EC 000:658 JLINK_JTAG_GetDeviceID(DeviceIndex = 1)  returns 0x6416041 (0000ms, 0586ms total)
T17EC 000:658 JLINK_JTAG_GetDeviceInfo(DeviceIndex = 1)  returns 0x00 (0000ms, 0586ms total)
T17EC 000:658 JLINK_GetDeviceFamily()  returns 3 (0000ms, 0586ms total)
T17EC 000:659 JLINK_ReadMem (0xE00FFFF0, 0x0010 Bytes, ...) -- CPU is running -- CPU_ReadMem(16 bytes @ 0xE00FFFF0) - Data: 0D 00 00 00 10 00 00 00 05 00 00 00 B1 00 00 00  returns 0x00 (0000ms, 0586ms total)
T17EC 000:659 JLINK_ReadMem (0xE00FFFD0, 0x0020 Bytes, ...) -- CPU is running -- CPU_ReadMem(32 bytes @ 0xE00FFFD0) - Data: 00 00 00 00 00 00 00 00 00 00 00 00 00 00 00 00 ...  returns 0x00 (0001ms, 0587ms total)
T17EC 000:660 JLINK_ReadMem (0xE00FF000, 0x0018 Bytes, ...) -- CPU is running -- CPU_ReadMem(24 bytes @ 0xE00FF000) - Data: 03 F0 F0 FF 03 20 F0 FF 03 30 F0 FF 03 10 F0 FF ...  returns 0x00 (0001ms, 0588ms total)
T17EC 000:661 JLINK_ReadMemU32(0xE000ED00, 0x0001 Items, ...) -- CPU is running -- CPU_ReadMem(4 bytes @ 0xE000ED00) - Data: 30 C2 2F 41  returns 0x01 (0000ms, 0588ms total)
T17EC 000:661 JLINK_SetResetType(JLINKARM_RESET_TYPE_NORMAL)  returns JLINKARM_RESET_TYPE_NORMAL (0001ms, 0589ms total)
T17EC 000:662 JLINK_Reset() -- CPU is running -- CPU_WriteMem(4 bytes @ 0xE000EDF0) -- CPU is running -- CPU_WriteMem(4 bytes @ 0xE000EDFC) -- CPU is running -- CPU_WriteMem(4 bytes @ 0xE000ED0C) -- CPU is running -- CPU_ReadMem(4 bytes @ 0xE000EDF0) -- CPU is running -- CPU_ReadMem(4 bytes @ 0xE000EDF0) -- CPU is running -- CPU_WriteMem(4 bytes @ 0xE000EDF0) -- CPU is running -- CPU_WriteMem(4 bytes @ 0xE000EDFC) -- CPU is running -- CPU_ReadMem(4 bytes @ 0xE000EDF0) >0x80 JTAG> >0x40 JTAG> >0x30 JTAG>
 >0x40 JTAG> >0x50 JTAG> >0x40 JTAG> -- CPU_WriteMem(4 bytes @ 0xE000EDFC) -- CPU_WriteMem(4 bytes @ 0xE0001028) -- CPU_WriteMem(4 bytes @ 0xE0001038) -- CPU_WriteMem(4 bytes @ 0xE0001048) -- CPU_WriteMem(4 bytes @ 0xE0001058) -- CPU_WriteMem(4 bytes @ 0xE0002000) -- CPU_ReadMem(4 bytes @ 0xE000EDFC) -- CPU_ReadMem(4 bytes @ 0xE0001000) (0027ms, 0616ms total)
T17EC 000:689 JLINK_Halt()  returns 0x00 (0000ms, 0616ms total)
T17EC 000:689 JLINK_IsHalted()  returns TRUE (0000ms, 0616ms total)
T17EC 000:689 JLINK_ReadMemU32(0xE000EDF0, 0x0001 Items, ...) -- CPU_ReadMem(4 bytes @ 0xE000EDF0) - Data: 03 00 03 00  returns 0x01 (0001ms, 0617ms total)
T17EC 000:690 JLINK_WriteU32(0xE000EDF0, 0xA05F0003) -- CPU_WriteMem(4 bytes @ 0xE000EDF0)  returns 0x00 (0001ms, 0618ms total)
T17EC 000:691 JLINK_WriteU32(0xE000EDFC, 0x01000000) -- CPU_WriteMem(4 bytes @ 0xE000EDFC)  returns 0x00 (0000ms, 0618ms total)
T17EC 000:704 JLINK_GetHWStatus(...)  returns 0x00 (0001ms, 0619ms total)
T17EC 000:711 JLINK_GetNumBPUnits(Type = 0xFFFFFF00)  returns 0x06 (0000ms, 0619ms total)
T17EC 000:711 JLINK_GetNumBPUnits(Type = 0xF0)  returns 0x2000 (0000ms, 0619ms total)
T17EC 000:711 JLINK_GetNumWPUnits()  returns 0x04 (0000ms, 0619ms total)
T17EC 000:717 JLINK_GetSpeed()  returns 0x7D0 (0000ms, 0619ms total)
T17EC 000:720 JLINK_ReadMemU32(0xE000E004, 0x0001 Items, ...) -- CPU_ReadMem(4 bytes @ 0xE000E004) - Data: 01 00 00 00  returns 0x01 (0000ms, 0619ms total)
T17EC 000:720 JLINK_ReadMemU32(0xE000E004, 0x0001 Items, ...) -- CPU_ReadMem(4 bytes @ 0xE000E004) - Data: 01 00 00 00  returns 0x01 (0001ms, 0620ms total)
T17EC 000:721 JLINK_WriteMem(0xE0001000, 0x001C Bytes, ...) - Data: 01 00 00 00 00 00 00 00 00 00 00 00 00 00 00 00 ... -- CPU_WriteMem(28 bytes @ 0xE0001000)  returns 0x1C (0001ms, 0621ms total)
T17EC 000:722 JLINK_ReadMem (0xE0001000, 0x001C Bytes, ...) -- CPU_ReadMem(28 bytes @ 0xE0001000) - Data: 01 00 00 40 00 00 00 00 00 00 00 00 00 00 00 00 ...  returns 0x00 (0001ms, 0622ms total)
T17EC 000:723 JLINK_Halt()  returns 0x00 (0000ms, 0622ms total)
T17EC 000:723 JLINK_IsHalted()  returns TRUE (0000ms, 0622ms total)
T17EC 000:725 JLINK_WriteMem(0x20000000, 0x0218 Bytes, ...) - Data: 00 BE 0A E0 0D 78 2D 06 68 40 08 24 40 00 00 D3 ... -- CPU_WriteMem(536 bytes @ 0x20000000)  returns 0x218 (0011ms, 0633ms total)
T17EC 000:736 JLINK_WriteReg(R0, 0x08000000)  returns 0x00 (0000ms, 0633ms total)
T17EC 000:736 JLINK_WriteReg(R1, 0x00B71B00)  returns 0x00 (0000ms, 0633ms total)
T17EC 000:736 JLINK_WriteReg(R2, 0x00000001)  returns 0x00 (0000ms, 0633ms total)
T17EC 000:736 JLINK_WriteReg(R3, 0x00000000)  returns 0x00 (0000ms, 0633ms total)
T17EC 000:736 JLINK_WriteReg(R4, 0x00000000)  returns 0x00 (0000ms, 0633ms total)
T17EC 000:736 JLINK_WriteReg(R5, 0x00000000)  returns 0x00 (0000ms, 0633ms total)
T17EC 000:736 JLINK_WriteReg(R6, 0x00000000)  returns 0x00 (0000ms, 0633ms total)
T17EC 000:736 JLINK_WriteReg(R7, 0x00000000)  returns 0x00 (0000ms, 0633ms total)
T17EC 000:736 JLINK_WriteReg(R8, 0x00000000)  returns 0x00 (0000ms, 0633ms total)
T17EC 000:736 JLINK_WriteReg(R9, 0x20000214)  returns 0x00 (0000ms, 0633ms total)
T17EC 000:736 JLINK_WriteReg(R10, 0x00000000)  returns 0x00 (0000ms, 0633ms total)
T17EC 000:736 JLINK_WriteReg(R11, 0x00000000)  returns 0x00 (0000ms, 0633ms total)
T17EC 000:736 JLINK_WriteReg(R12, 0x00000000)  returns 0x00 (0000ms, 0633ms total)
T17EC 000:736 JLINK_WriteReg(R13 (SP), 0x20001000)  returns 0x00 (0000ms, 0633ms total)
T17EC 000:736 JLINK_WriteReg(R14, 0x20000001)  returns 0x00 (0000ms, 0633ms total)
T17EC 000:736 JLINK_WriteReg(R15 (PC), 0x20000020)  returns 0x00 (0000ms, 0633ms total)
T17EC 000:736 JLINK_WriteReg(XPSR, 0x01000000)  returns 0x00 (0000ms, 0633ms total)
T17EC 000:736 JLINK_WriteReg(MSP, 0x20001000)  returns 0x00 (0000ms, 0633ms total)
T17EC 000:736 JLINK_WriteReg(PSP, 0x20001000)  returns 0x00 (0000ms, 0633ms total)
T17EC 000:736 JLINK_WriteReg(CFBP, 0x00000000)  returns 0x00 (0000ms, 0633ms total)
T17EC 000:736 JLINK_SetBPEx(Addr = 0x20000000, Type = 0xFFFFFFF2) -- CPU_ReadMem(2 bytes @ 0x20000000)  returns 0x00000001 (0001ms, 0634ms total)
T17EC 000:737 JLINK_Go() -- CPU_WriteMem(2 bytes @ 0x20000000) -- CPU_WriteMem(4 bytes @ 0xE0002008) -- CPU_WriteMem(4 bytes @ 0xE000200C) -- CPU_WriteMem(4 bytes @ 0xE0002010) -- CPU_WriteMem(4 bytes @ 0xE0002014) -- CPU_WriteMem(4 bytes @ 0xE0002018) -- CPU_WriteMem(4 bytes @ 0xE000201C) -- CPU_WriteMem(4 bytes @ 0xE0001004) (0007ms, 0641ms total)
T17EC 000:744 JLINK_IsHalted() -- CPU_ReadMem(2 bytes @ 0x20000000)  returns TRUE (0006ms, 0647ms total)
T17EC 000:750 JLINK_ReadReg(R15 (PC))  returns 0x20000000 (0000ms, 0641ms total)
T17EC 000:750 JLINK_ClrBPEx(BPHandle = 0x00000001)  returns 0x00 (0000ms, 0641ms total)
T17EC 000:750 JLINK_ReadReg(R0)  returns 0x00000000 (0000ms, 0641ms total)
T17EC 000:751 JLINK_WriteReg(R0, 0x08000800)  returns 0x00 (0000ms, 0641ms total)
T17EC 000:751 JLINK_WriteReg(R1, 0x00000100)  returns 0x00 (0000ms, 0641ms total)
T17EC 000:751 JLINK_WriteReg(R2, 0x00000000)  returns 0x00 (0000ms, 0641ms total)
T17EC 000:751 JLINK_WriteReg(R3, 0x00000000)  returns 0x00 (0000ms, 0641ms total)
T17EC 000:751 JLINK_WriteReg(R4, 0x00000000)  returns 0x00 (0000ms, 0641ms total)
T17EC 000:751 JLINK_WriteReg(R5, 0x00000000)  returns 0x00 (0000ms, 0641ms total)
T17EC 000:751 JLINK_WriteReg(R6, 0x00000000)  returns 0x00 (0000ms, 0641ms total)
T17EC 000:751 JLINK_WriteReg(R7, 0x00000000)  returns 0x00 (0000ms, 0641ms total)
T17EC 000:751 JLINK_WriteReg(R8, 0x00000000)  returns 0x00 (0000ms, 0641ms total)
T17EC 000:751 JLINK_WriteReg(R9, 0x20000214)  returns 0x00 (0000ms, 0641ms total)
T17EC 000:751 JLINK_WriteReg(R10, 0x00000000)  returns 0x00 (0000ms, 0641ms total)
T17EC 000:751 JLINK_WriteReg(R11, 0x00000000)  returns 0x00 (0000ms, 0641ms total)
T17EC 000:751 JLINK_WriteReg(R12, 0x00000000)  returns 0x00 (0000ms, 0641ms total)
T17EC 000:751 JLINK_WriteReg(R13 (SP), 0x20001000)  returns 0x00 (0000ms, 0641ms total)
T17EC 000:751 JLINK_WriteReg(R14, 0x20000001)  returns 0x00 (0000ms, 0641ms total)
T17EC 000:751 JLINK_WriteReg(R15 (PC), 0x200000FA)  returns 0x00 (0000ms, 0641ms total)
T17EC 000:751 JLINK_WriteReg(XPSR, 0x01000000)  returns 0x00 (0000ms, 0641ms total)
T17EC 000:751 JLINK_WriteReg(MSP, 0x20001000)  returns 0x00 (0000ms, 0641ms total)
T17EC 000:751 JLINK_WriteReg(PSP, 0x20001000)  returns 0x00 (0000ms, 0641ms total)
T17EC 000:751 JLINK_WriteReg(CFBP, 0x00000000)  returns 0x00 (0000ms, 0641ms total)
T17EC 000:751 JLINK_SetBPEx(Addr = 0x20000000, Type = 0xFFFFFFF2)  returns 0x00000002 (0000ms, 0641ms total)
T17EC 000:751 JLINK_Go() (0003ms, 0644ms total)
T17EC 000:754 JLINK_IsHalted() -- CPU_ReadMem(2 bytes @ 0x20000000)  returns TRUE (0006ms, 0650ms total)
T17EC 000:760 JLINK_ReadReg(R15 (PC))  returns 0x20000000 (0000ms, 0644ms total)
T17EC 000:760 JLINK_ClrBPEx(BPHandle = 0x00000002)  returns 0x00 (0000ms, 0644ms total)
T17EC 000:760 JLINK_ReadReg(R0)  returns 0x00000001 (0000ms, 0644ms total)
T17EC 000:760 JLINK_WriteReg(R0, 0x08000800)  returns 0x00 (0000ms, 0644ms total)
T17EC 000:760 JLINK_WriteReg(R1, 0x00000100)  returns 0x00 (0001ms, 0645ms total)
T17EC 000:761 JLINK_WriteReg(R2, 0x00000000)  returns 0x00 (0000ms, 0645ms total)
T17EC 000:761 JLINK_WriteReg(R3, 0x00000000)  returns 0x00 (0000ms, 0645ms total)
T17EC 000:761 JLINK_WriteReg(R4, 0x00000000)  returns 0x00 (0000ms, 0645ms total)
T17EC 000:761 JLINK_WriteReg(R5, 0x00000000)  returns 0x00 (0000ms, 0645ms total)
T17EC 000:761 JLINK_WriteReg(R6, 0x00000000)  returns 0x00 (0000ms, 0645ms total)
T17EC 000:761 JLINK_WriteReg(R7, 0x00000000)  returns 0x00 (0000ms, 0645ms total)
T17EC 000:761 JLINK_WriteReg(R8, 0x00000000)  returns 0x00 (0000ms, 0645ms total)
T17EC 000:761 JLINK_WriteReg(R9, 0x20000214)  returns 0x00 (0000ms, 0645ms total)
T17EC 000:761 JLINK_WriteReg(R10, 0x00000000)  returns 0x00 (0000ms, 0645ms total)
T17EC 000:761 JLINK_WriteReg(R11, 0x00000000)  returns 0x00 (0000ms, 0645ms total)
T17EC 000:761 JLINK_WriteReg(R12, 0x00000000)  returns 0x00 (0000ms, 0645ms total)
T17EC 000:761 JLINK_WriteReg(R13 (SP), 0x20001000)  returns 0x00 (0000ms, 0645ms total)
T17EC 000:761 JLINK_WriteReg(R14, 0x20000001)  returns 0x00 (0000ms, 0645ms total)
T17EC 000:761 JLINK_WriteReg(R15 (PC), 0x200000A8)  returns 0x00 (0000ms, 0645ms total)
T17EC 000:761 JLINK_WriteReg(XPSR, 0x01000000)  returns 0x00 (0000ms, 0645ms total)
T17EC 000:761 JLINK_WriteReg(MSP, 0x20001000)  returns 0x00 (0000ms, 0645ms total)
T17EC 000:761 JLINK_WriteReg(PSP, 0x20001000)  returns 0x00 (0000ms, 0645ms total)
T17EC 000:761 JLINK_WriteReg(CFBP, 0x00000000)  returns 0x00 (0000ms, 0645ms total)
T17EC 000:761 JLINK_SetBPEx(Addr = 0x20000000, Type = 0xFFFFFFF2)  returns 0x00000003 (0000ms, 0645ms total)
T17EC 000:761 JLINK_Go() (0002ms, 0647ms total)
T17EC 000:763 JLINK_IsHalted()  returns FALSE (0001ms, 0648ms total)
T17EC 000:799 JLINK_IsHalted() -- CPU_ReadMem(2 bytes @ 0x20000000)  returns TRUE (0007ms, 0654ms total)
T17EC 000:806 JLINK_ReadReg(R15 (PC))  returns 0x20000000 (0000ms, 0647ms total)
T17EC 000:806 JLINK_ClrBPEx(BPHandle = 0x00000003)  returns 0x00 (0000ms, 0647ms total)
T17EC 000:806 JLINK_ReadReg(R0)  returns 0x00000000 (0000ms, 0647ms total)
T17EC 000:806 JLINK_WriteReg(R0, 0x08000900)  returns 0x00 (0000ms, 0647ms total)
T17EC 000:806 JLINK_WriteReg(R1, 0x00000100)  returns 0x00 (0000ms, 0647ms total)
T17EC 000:806 JLINK_WriteReg(R2, 0x00000000)  returns 0x00 (0000ms, 0647ms total)
T17EC 000:806 JLINK_WriteReg(R3, 0x00000000)  returns 0x00 (0000ms, 0647ms total)
T17EC 000:806 JLINK_WriteReg(R4, 0x00000000)  returns 0x00 (0000ms, 0647ms total)
T17EC 000:806 JLINK_WriteReg(R5, 0x00000000)  returns 0x00 (0000ms, 0647ms total)
T17EC 000:806 JLINK_WriteReg(R6, 0x00000000)  returns 0x00 (0000ms, 0647ms total)
T17EC 000:806 JLINK_WriteReg(R7, 0x00000000)  returns 0x00 (0000ms, 0647ms total)
T17EC 000:806 JLINK_WriteReg(R8, 0x00000000)  returns 0x00 (0000ms, 0647ms total)
T17EC 000:806 JLINK_WriteReg(R9, 0x20000214)  returns 0x00 (0000ms, 0647ms total)
T17EC 000:806 JLINK_WriteReg(R10, 0x00000000)  returns 0x00 (0000ms, 0647ms total)
T17EC 000:806 JLINK_WriteReg(R11, 0x00000000)  returns 0x00 (0000ms, 0647ms total)
T17EC 000:806 JLINK_WriteReg(R12, 0x00000000)  returns 0x00 (0000ms, 0647ms total)
T17EC 000:806 JLINK_WriteReg(R13 (SP), 0x20001000)  returns 0x00 (0000ms, 0647ms total)
T17EC 000:806 JLINK_WriteReg(R14, 0x20000001)  returns 0x00 (0000ms, 0647ms total)
T17EC 000:806 JLINK_WriteReg(R15 (PC), 0x200000FA)  returns 0x00 (0000ms, 0647ms total)
T17EC 000:806 JLINK_WriteReg(XPSR, 0x01000000)  returns 0x00 (0000ms, 0647ms total)
T17EC 000:806 JLINK_WriteReg(MSP, 0x20001000)  returns 0x00 (0000ms, 0647ms total)
T17EC 000:806 JLINK_WriteReg(PSP, 0x20001000)  returns 0x00 (0000ms, 0647ms total)
T17EC 000:806 JLINK_WriteReg(CFBP, 0x00000000)  returns 0x00 (0000ms, 0647ms total)
T17EC 000:806 JLINK_SetBPEx(Addr = 0x20000000, Type = 0xFFFFFFF2)  returns 0x00000004 (0000ms, 0647ms total)
T17EC 000:806 JLINK_Go() (0003ms, 0650ms total)
T17EC 000:809 JLINK_IsHalted() -- CPU_ReadMem(2 bytes @ 0x20000000)  returns TRUE (0006ms, 0656ms total)
T17EC 000:815 JLINK_ReadReg(R15 (PC))  returns 0x20000000 (0000ms, 0650ms total)
T17EC 000:815 JLINK_ClrBPEx(BPHandle = 0x00000004)  returns 0x00 (0000ms, 0650ms total)
T17EC 000:815 JLINK_ReadReg(R0)  returns 0x00000001 (0000ms, 0650ms total)
T17EC 000:815 JLINK_WriteReg(R0, 0x08000900)  returns 0x00 (0000ms, 0650ms total)
T17EC 000:815 JLINK_WriteReg(R1, 0x00000100)  returns 0x00 (0000ms, 0650ms total)
T17EC 000:815 JLINK_WriteReg(R2, 0x00000000)  returns 0x00 (0000ms, 0650ms total)
T17EC 000:815 JLINK_WriteReg(R3, 0x00000000)  returns 0x00 (0000ms, 0650ms total)
T17EC 000:815 JLINK_WriteReg(R4, 0x00000000)  returns 0x00 (0000ms, 0650ms total)
T17EC 000:815 JLINK_WriteReg(R5, 0x00000000)  returns 0x00 (0000ms, 0650ms total)
T17EC 000:815 JLINK_WriteReg(R6, 0x00000000)  returns 0x00 (0000ms, 0650ms total)
T17EC 000:815 JLINK_WriteReg(R7, 0x00000000)  returns 0x00 (0000ms, 0650ms total)
T17EC 000:815 JLINK_WriteReg(R8, 0x00000000)  returns 0x00 (0000ms, 0650ms total)
T17EC 000:815 JLINK_WriteReg(R9, 0x20000214)  returns 0x00 (0000ms, 0650ms total)
T17EC 000:815 JLINK_WriteReg(R10, 0x00000000)  returns 0x00 (0000ms, 0650ms total)
T17EC 000:815 JLINK_WriteReg(R11, 0x00000000)  returns 0x00 (0000ms, 0650ms total)
T17EC 000:815 JLINK_WriteReg(R12, 0x00000000)  returns 0x00 (0000ms, 0650ms total)
T17EC 000:815 JLINK_WriteReg(R13 (SP), 0x20001000)  returns 0x00 (0000ms, 0650ms total)
T17EC 000:815 JLINK_WriteReg(R14, 0x20000001)  returns 0x00 (0000ms, 0650ms total)
T17EC 000:815 JLINK_WriteReg(R15 (PC), 0x200000A8)  returns 0x00 (0000ms, 0650ms total)
T17EC 000:815 JLINK_WriteReg(XPSR, 0x01000000)  returns 0x00 (0000ms, 0650ms total)
T17EC 000:815 JLINK_WriteReg(MSP, 0x20001000)  returns 0x00 (0000ms, 0650ms total)
T17EC 000:815 JLINK_WriteReg(PSP, 0x20001000)  returns 0x00 (0000ms, 0650ms total)
T17EC 000:815 JLINK_WriteReg(CFBP, 0x00000000)  returns 0x00 (0000ms, 0650ms total)
T17EC 000:815 JLINK_SetBPEx(Addr = 0x20000000, Type = 0xFFFFFFF2)  returns 0x00000005 (0000ms, 0650ms total)
T17EC 000:815 JLINK_Go() (0002ms, 0652ms total)
T17EC 000:817 JLINK_IsHalted()  returns FALSE (0001ms, 0653ms total)
T17EC 000:819 JLINK_IsHalted()  returns FALSE (0000ms, 0652ms total)
T17EC 000:820 JLINK_IsHalted()  returns FALSE (0000ms, 0652ms total)
T17EC 000:821 JLINK_IsHalted() -- CPU_ReadMem(2 bytes @ 0x20000000)  returns TRUE (0006ms, 0658ms total)
T17EC 000:827 JLINK_ReadReg(R15 (PC))  returns 0x20000000 (0000ms, 0652ms total)
T17EC 000:827 JLINK_ClrBPEx(BPHandle = 0x00000005)  returns 0x00 (0000ms, 0652ms total)
T17EC 000:827 JLINK_ReadReg(R0)  returns 0x00000000 (0000ms, 0652ms total)
T17EC 000:827 JLINK_WriteReg(R0, 0x08000A00)  returns 0x00 (0000ms, 0652ms total)
T17EC 000:827 JLINK_WriteReg(R1, 0x00000100)  returns 0x00 (0000ms, 0652ms total)
T17EC 000:827 JLINK_WriteReg(R2, 0x00000000)  returns 0x00 (0000ms, 0652ms total)
T17EC 000:827 JLINK_WriteReg(R3, 0x00000000)  returns 0x00 (0000ms, 0652ms total)
T17EC 000:827 JLINK_WriteReg(R4, 0x00000000)  returns 0x00 (0000ms, 0652ms total)
T17EC 000:827 JLINK_WriteReg(R5, 0x00000000)  returns 0x00 (0000ms, 0652ms total)
T17EC 000:827 JLINK_WriteReg(R6, 0x00000000)  returns 0x00 (0000ms, 0652ms total)
T17EC 000:827 JLINK_WriteReg(R7, 0x00000000)  returns 0x00 (0000ms, 0652ms total)
T17EC 000:827 JLINK_WriteReg(R8, 0x00000000)  returns 0x00 (0000ms, 0652ms total)
T17EC 000:827 JLINK_WriteReg(R9, 0x20000214)  returns 0x00 (0000ms, 0652ms total)
T17EC 000:827 JLINK_WriteReg(R10, 0x00000000)  returns 0x00 (0000ms, 0652ms total)
T17EC 000:827 JLINK_WriteReg(R11, 0x00000000)  returns 0x00 (0000ms, 0652ms total)
T17EC 000:827 JLINK_WriteReg(R12, 0x00000000)  returns 0x00 (0000ms, 0652ms total)
T17EC 000:827 JLINK_WriteReg(R13 (SP), 0x20001000)  returns 0x00 (0000ms, 0652ms total)
T17EC 000:827 JLINK_WriteReg(R14, 0x20000001)  returns 0x00 (0000ms, 0652ms total)
T17EC 000:827 JLINK_WriteReg(R15 (PC), 0x200000FA)  returns 0x00 (0000ms, 0652ms total)
T17EC 000:827 JLINK_WriteReg(XPSR, 0x01000000)  returns 0x00 (0000ms, 0652ms total)
T17EC 000:827 JLINK_WriteReg(MSP, 0x20001000)  returns 0x00 (0000ms, 0652ms total)
T17EC 000:827 JLINK_WriteReg(PSP, 0x20001000)  returns 0x00 (0000ms, 0652ms total)
T17EC 000:827 JLINK_WriteReg(CFBP, 0x00000000)  returns 0x00 (0000ms, 0652ms total)
T17EC 000:827 JLINK_SetBPEx(Addr = 0x20000000, Type = 0xFFFFFFF2)  returns 0x00000006 (0000ms, 0652ms total)
T17EC 000:827 JLINK_Go() (0003ms, 0655ms total)
T17EC 000:830 JLINK_IsHalted() -- CPU_ReadMem(2 bytes @ 0x20000000)  returns TRUE (0006ms, 0661ms total)
T17EC 000:836 JLINK_ReadReg(R15 (PC))  returns 0x20000000 (0000ms, 0655ms total)
T17EC 000:836 JLINK_ClrBPEx(BPHandle = 0x00000006)  returns 0x00 (0000ms, 0655ms total)
T17EC 000:836 JLINK_ReadReg(R0)  returns 0x00000001 (0000ms, 0655ms total)
T17EC 000:836 JLINK_WriteReg(R0, 0x08000A00)  returns 0x00 (0000ms, 0655ms total)
T17EC 000:836 JLINK_WriteReg(R1, 0x00000100)  returns 0x00 (0000ms, 0655ms total)
T17EC 000:836 JLINK_WriteReg(R2, 0x00000000)  returns 0x00 (0000ms, 0655ms total)
T17EC 000:836 JLINK_WriteReg(R3, 0x00000000)  returns 0x00 (0000ms, 0655ms total)
T17EC 000:836 JLINK_WriteReg(R4, 0x00000000)  returns 0x00 (0000ms, 0655ms total)
T17EC 000:836 JLINK_WriteReg(R5, 0x00000000)  returns 0x00 (0000ms, 0655ms total)
T17EC 000:836 JLINK_WriteReg(R6, 0x00000000)  returns 0x00 (0000ms, 0655ms total)
T17EC 000:836 JLINK_WriteReg(R7, 0x00000000)  returns 0x00 (0000ms, 0655ms total)
T17EC 000:836 JLINK_WriteReg(R8, 0x00000000)  returns 0x00 (0000ms, 0655ms total)
T17EC 000:836 JLINK_WriteReg(R9, 0x20000214)  returns 0x00 (0000ms, 0655ms total)
T17EC 000:836 JLINK_WriteReg(R10, 0x00000000)  returns 0x00 (0000ms, 0655ms total)
T17EC 000:836 JLINK_WriteReg(R11, 0x00000000)  returns 0x00 (0000ms, 0655ms total)
T17EC 000:836 JLINK_WriteReg(R12, 0x00000000)  returns 0x00 (0000ms, 0655ms total)
T17EC 000:836 JLINK_WriteReg(R13 (SP), 0x20001000)  returns 0x00 (0000ms, 0655ms total)
T17EC 000:836 JLINK_WriteReg(R14, 0x20000001)  returns 0x00 (0000ms, 0655ms total)
T17EC 000:836 JLINK_WriteReg(R15 (PC), 0x200000A8)  returns 0x00 (0000ms, 0655ms total)
T17EC 000:836 JLINK_WriteReg(XPSR, 0x01000000)  returns 0x00 (0000ms, 0655ms total)
T17EC 000:836 JLINK_WriteReg(MSP, 0x20001000)  returns 0x00 (0000ms, 0655ms total)
T17EC 000:836 JLINK_WriteReg(PSP, 0x20001000)  returns 0x00 (0000ms, 0655ms total)
T17EC 000:836 JLINK_WriteReg(CFBP, 0x00000000)  returns 0x00 (0000ms, 0655ms total)
T17EC 000:836 JLINK_SetBPEx(Addr = 0x20000000, Type = 0xFFFFFFF2)  returns 0x00000007 (0000ms, 0655ms total)
T17EC 000:837 JLINK_Go() (0002ms, 0658ms total)
T17EC 000:839 JLINK_IsHalted()  returns FALSE (0000ms, 0658ms total)
T17EC 000:842 JLINK_IsHalted() -- CPU_ReadMem(2 bytes @ 0x20000000)  returns TRUE (0006ms, 0664ms total)
T17EC 000:848 JLINK_ReadReg(R15 (PC))  returns 0x20000000 (0000ms, 0658ms total)
T17EC 000:848 JLINK_ClrBPEx(BPHandle = 0x00000007)  returns 0x00 (0000ms, 0658ms total)
T17EC 000:848 JLINK_ReadReg(R0)  returns 0x00000000 (0000ms, 0658ms total)
T17EC 000:849 JLINK_WriteReg(R0, 0x08000B00)  returns 0x00 (0000ms, 0658ms total)
T17EC 000:849 JLINK_WriteReg(R1, 0x00000100)  returns 0x00 (0000ms, 0658ms total)
T17EC 000:849 JLINK_WriteReg(R2, 0x00000000)  returns 0x00 (0000ms, 0658ms total)
T17EC 000:849 JLINK_WriteReg(R3, 0x00000000)  returns 0x00 (0000ms, 0658ms total)
T17EC 000:849 JLINK_WriteReg(R4, 0x00000000)  returns 0x00 (0000ms, 0658ms total)
T17EC 000:849 JLINK_WriteReg(R5, 0x00000000)  returns 0x00 (0000ms, 0658ms total)
T17EC 000:849 JLINK_WriteReg(R6, 0x00000000)  returns 0x00 (0000ms, 0658ms total)
T17EC 000:849 JLINK_WriteReg(R7, 0x00000000)  returns 0x00 (0000ms, 0658ms total)
T17EC 000:849 JLINK_WriteReg(R8, 0x00000000)  returns 0x00 (0000ms, 0658ms total)
T17EC 000:849 JLINK_WriteReg(R9, 0x20000214)  returns 0x00 (0000ms, 0658ms total)
T17EC 000:849 JLINK_WriteReg(R10, 0x00000000)  returns 0x00 (0000ms, 0658ms total)
T17EC 000:849 JLINK_WriteReg(R11, 0x00000000)  returns 0x00 (0001ms, 0659ms total)
T17EC 000:850 JLINK_WriteReg(R12, 0x00000000)  returns 0x00 (0000ms, 0659ms total)
T17EC 000:850 JLINK_WriteReg(R13 (SP), 0x20001000)  returns 0x00 (0000ms, 0659ms total)
T17EC 000:850 JLINK_WriteReg(R14, 0x20000001)  returns 0x00 (0000ms, 0659ms total)
T17EC 000:850 JLINK_WriteReg(R15 (PC), 0x200000FA)  returns 0x00 (0000ms, 0659ms total)
T17EC 000:850 JLINK_WriteReg(XPSR, 0x01000000)  returns 0x00 (0000ms, 0659ms total)
T17EC 000:850 JLINK_WriteReg(MSP, 0x20001000)  returns 0x00 (0000ms, 0659ms total)
T17EC 000:850 JLINK_WriteReg(PSP, 0x20001000)  returns 0x00 (0000ms, 0659ms total)
T17EC 000:850 JLINK_WriteReg(CFBP, 0x00000000)  returns 0x00 (0000ms, 0659ms total)
T17EC 000:850 JLINK_SetBPEx(Addr = 0x20000000, Type = 0xFFFFFFF2)  returns 0x00000008 (0000ms, 0659ms total)
T17EC 000:850 JLINK_Go() (0002ms, 0661ms total)
T17EC 000:853 JLINK_IsHalted() -- CPU_ReadMem(2 bytes @ 0x20000000)  returns TRUE (0006ms, 0668ms total)
T17EC 000:859 JLINK_ReadReg(R15 (PC))  returns 0x20000000 (0000ms, 0662ms total)
T17EC 000:859 JLINK_ClrBPEx(BPHandle = 0x00000008)  returns 0x00 (0000ms, 0662ms total)
T17EC 000:859 JLINK_ReadReg(R0)  returns 0x00000001 (0000ms, 0662ms total)
T17EC 000:859 JLINK_WriteReg(R0, 0x08000B00)  returns 0x00 (0001ms, 0663ms total)
T17EC 000:860 JLINK_WriteReg(R1, 0x00000100)  returns 0x00 (0000ms, 0663ms total)
T17EC 000:860 JLINK_WriteReg(R2, 0x00000000)  returns 0x00 (0000ms, 0663ms total)
T17EC 000:860 JLINK_WriteReg(R3, 0x00000000)  returns 0x00 (0000ms, 0663ms total)
T17EC 000:860 JLINK_WriteReg(R4, 0x00000000)  returns 0x00 (0000ms, 0663ms total)
T17EC 000:860 JLINK_WriteReg(R5, 0x00000000)  returns 0x00 (0000ms, 0663ms total)
T17EC 000:860 JLINK_WriteReg(R6, 0x00000000)  returns 0x00 (0000ms, 0663ms total)
T17EC 000:860 JLINK_WriteReg(R7, 0x00000000)  returns 0x00 (0000ms, 0663ms total)
T17EC 000:860 JLINK_WriteReg(R8, 0x00000000)  returns 0x00 (0000ms, 0663ms total)
T17EC 000:860 JLINK_WriteReg(R9, 0x20000214)  returns 0x00 (0000ms, 0663ms total)
T17EC 000:860 JLINK_WriteReg(R10, 0x00000000)  returns 0x00 (0000ms, 0663ms total)
T17EC 000:860 JLINK_WriteReg(R11, 0x00000000)  returns 0x00 (0000ms, 0663ms total)
T17EC 000:860 JLINK_WriteReg(R12, 0x00000000)  returns 0x00 (0000ms, 0663ms total)
T17EC 000:860 JLINK_WriteReg(R13 (SP), 0x20001000)  returns 0x00 (0000ms, 0663ms total)
T17EC 000:860 JLINK_WriteReg(R14, 0x20000001)  returns 0x00 (0000ms, 0663ms total)
T17EC 000:860 JLINK_WriteReg(R15 (PC), 0x200000A8)  returns 0x00 (0000ms, 0663ms total)
T17EC 000:860 JLINK_WriteReg(XPSR, 0x01000000)  returns 0x00 (0000ms, 0663ms total)
T17EC 000:860 JLINK_WriteReg(MSP, 0x20001000)  returns 0x00 (0000ms, 0663ms total)
T17EC 000:860 JLINK_WriteReg(PSP, 0x20001000)  returns 0x00 (0000ms, 0663ms total)
T17EC 000:860 JLINK_WriteReg(CFBP, 0x00000000)  returns 0x00 (0000ms, 0663ms total)
T17EC 000:860 JLINK_SetBPEx(Addr = 0x20000000, Type = 0xFFFFFFF2)  returns 0x00000009 (0000ms, 0663ms total)
T17EC 000:860 JLINK_Go() (0003ms, 0666ms total)
T17EC 000:863 JLINK_IsHalted()  returns FALSE (0001ms, 0667ms total)
T17EC 000:869 JLINK_IsHalted() -- CPU_ReadMem(2 bytes @ 0x20000000)  returns TRUE (0007ms, 0673ms total)
T17EC 000:876 JLINK_ReadReg(R15 (PC))  returns 0x20000000 (0000ms, 0666ms total)
T17EC 000:876 JLINK_ClrBPEx(BPHandle = 0x00000009)  returns 0x00 (0000ms, 0666ms total)
T17EC 000:876 JLINK_ReadReg(R0)  returns 0x00000000 (0000ms, 0666ms total)
T17EC 000:877 JLINK_WriteReg(R0, 0x08000C00)  returns 0x00 (0000ms, 0666ms total)
T17EC 000:877 JLINK_WriteReg(R1, 0x00000100)  returns 0x00 (0000ms, 0666ms total)
T17EC 000:877 JLINK_WriteReg(R2, 0x00000000)  returns 0x00 (0000ms, 0666ms total)
T17EC 000:877 JLINK_WriteReg(R3, 0x00000000)  returns 0x00 (0000ms, 0666ms total)
T17EC 000:877 JLINK_WriteReg(R4, 0x00000000)  returns 0x00 (0000ms, 0666ms total)
T17EC 000:877 JLINK_WriteReg(R5, 0x00000000)  returns 0x00 (0000ms, 0666ms total)
T17EC 000:877 JLINK_WriteReg(R6, 0x00000000)  returns 0x00 (0000ms, 0666ms total)
T17EC 000:877 JLINK_WriteReg(R7, 0x00000000)  returns 0x00 (0000ms, 0666ms total)
T17EC 000:877 JLINK_WriteReg(R8, 0x00000000)  returns 0x00 (0000ms, 0666ms total)
T17EC 000:877 JLINK_WriteReg(R9, 0x20000214)  returns 0x00 (0000ms, 0666ms total)
T17EC 000:877 JLINK_WriteReg(R10, 0x00000000)  returns 0x00 (0000ms, 0666ms total)
T17EC 000:877 JLINK_WriteReg(R11, 0x00000000)  returns 0x00 (0000ms, 0666ms total)
T17EC 000:877 JLINK_WriteReg(R12, 0x00000000)  returns 0x00 (0000ms, 0666ms total)
T17EC 000:877 JLINK_WriteReg(R13 (SP), 0x20001000)  returns 0x00 (0000ms, 0666ms total)
T17EC 000:877 JLINK_WriteReg(R14, 0x20000001)  returns 0x00 (0001ms, 0667ms total)
T17EC 000:878 JLINK_WriteReg(R15 (PC), 0x200000FA)  returns 0x00 (0000ms, 0667ms total)
T17EC 000:878 JLINK_WriteReg(XPSR, 0x01000000)  returns 0x00 (0000ms, 0667ms total)
T17EC 000:878 JLINK_WriteReg(MSP, 0x20001000)  returns 0x00 (0000ms, 0667ms total)
T17EC 000:878 JLINK_WriteReg(PSP, 0x20001000)  returns 0x00 (0000ms, 0667ms total)
T17EC 000:878 JLINK_WriteReg(CFBP, 0x00000000)  returns 0x00 (0000ms, 0667ms total)
T17EC 000:878 JLINK_SetBPEx(Addr = 0x20000000, Type = 0xFFFFFFF2)  returns 0x0000000A (0000ms, 0667ms total)
T17EC 000:878 JLINK_Go() (0003ms, 0670ms total)
T17EC 000:881 JLINK_IsHalted() -- CPU_ReadMem(2 bytes @ 0x20000000)  returns TRUE (0007ms, 0677ms total)
T17EC 000:888 JLINK_ReadReg(R15 (PC))  returns 0x20000000 (0000ms, 0670ms total)
T17EC 000:888 JLINK_ClrBPEx(BPHandle = 0x0000000A)  returns 0x00 (0000ms, 0670ms total)
T17EC 000:888 JLINK_ReadReg(R0)  returns 0x00000001 (0000ms, 0670ms total)
T17EC 000:888 JLINK_WriteReg(R0, 0x08000C00)  returns 0x00 (0000ms, 0670ms total)
T17EC 000:888 JLINK_WriteReg(R1, 0x00000100)  returns 0x00 (0000ms, 0670ms total)
T17EC 000:888 JLINK_WriteReg(R2, 0x00000000)  returns 0x00 (0000ms, 0670ms total)
T17EC 000:888 JLINK_WriteReg(R3, 0x00000000)  returns 0x00 (0000ms, 0670ms total)
T17EC 000:888 JLINK_WriteReg(R4, 0x00000000)  returns 0x00 (0000ms, 0670ms total)
T17EC 000:888 JLINK_WriteReg(R5, 0x00000000)  returns 0x00 (0000ms, 0670ms total)
T17EC 000:888 JLINK_WriteReg(R6, 0x00000000)  returns 0x00 (0000ms, 0670ms total)
T17EC 000:888 JLINK_WriteReg(R7, 0x00000000)  returns 0x00 (0000ms, 0670ms total)
T17EC 000:888 JLINK_WriteReg(R8, 0x00000000)  returns 0x00 (0000ms, 0670ms total)
T17EC 000:888 JLINK_WriteReg(R9, 0x20000214)  returns 0x00 (0000ms, 0670ms total)
T17EC 000:888 JLINK_WriteReg(R10, 0x00000000)  returns 0x00 (0000ms, 0670ms total)
T17EC 000:888 JLINK_WriteReg(R11, 0x00000000)  returns 0x00 (0000ms, 0670ms total)
T17EC 000:888 JLINK_WriteReg(R12, 0x00000000)  returns 0x00 (0000ms, 0670ms total)
T17EC 000:888 JLINK_WriteReg(R13 (SP), 0x20001000)  returns 0x00 (0000ms, 0670ms total)
T17EC 000:888 JLINK_WriteReg(R14, 0x20000001)  returns 0x00 (0000ms, 0670ms total)
T17EC 000:888 JLINK_WriteReg(R15 (PC), 0x200000A8)  returns 0x00 (0000ms, 0670ms total)
T17EC 000:888 JLINK_WriteReg(XPSR, 0x01000000)  returns 0x00 (0000ms, 0670ms total)
T17EC 000:888 JLINK_WriteReg(MSP, 0x20001000)  returns 0x00 (0000ms, 0670ms total)
T17EC 000:889 JLINK_WriteReg(PSP, 0x20001000)  returns 0x00 (0000ms, 0671ms total)
T17EC 000:889 JLINK_WriteReg(CFBP, 0x00000000)  returns 0x00 (0000ms, 0671ms total)
T17EC 000:889 JLINK_SetBPEx(Addr = 0x20000000, Type = 0xFFFFFFF2)  returns 0x0000000B (0000ms, 0671ms total)
T17EC 000:889 JLINK_Go() (0002ms, 0673ms total)
T17EC 000:891 JLINK_IsHalted()  returns FALSE (0001ms, 0674ms total)
T17EC 000:901 JLINK_IsHalted() -- CPU_ReadMem(2 bytes @ 0x20000000)  returns TRUE (0007ms, 0680ms total)
T17EC 000:908 JLINK_ReadReg(R15 (PC))  returns 0x20000000 (0000ms, 0673ms total)
T17EC 000:908 JLINK_ClrBPEx(BPHandle = 0x0000000B)  returns 0x00 (0000ms, 0673ms total)
T17EC 000:908 JLINK_ReadReg(R0)  returns 0x00000000 (0000ms, 0673ms total)
T17EC 000:908 JLINK_WriteReg(R0, 0x08000D00)  returns 0x00 (0001ms, 0674ms total)
T17EC 000:909 JLINK_WriteReg(R1, 0x00000100)  returns 0x00 (0000ms, 0674ms total)
T17EC 000:909 JLINK_WriteReg(R2, 0x00000000)  returns 0x00 (0000ms, 0674ms total)
T17EC 000:909 JLINK_WriteReg(R3, 0x00000000)  returns 0x00 (0000ms, 0674ms total)
T17EC 000:909 JLINK_WriteReg(R4, 0x00000000)  returns 0x00 (0000ms, 0674ms total)
T17EC 000:909 JLINK_WriteReg(R5, 0x00000000)  returns 0x00 (0000ms, 0674ms total)
T17EC 000:909 JLINK_WriteReg(R6, 0x00000000)  returns 0x00 (0000ms, 0674ms total)
T17EC 000:909 JLINK_WriteReg(R7, 0x00000000)  returns 0x00 (0000ms, 0674ms total)
T17EC 000:909 JLINK_WriteReg(R8, 0x00000000)  returns 0x00 (0000ms, 0674ms total)
T17EC 000:909 JLINK_WriteReg(R9, 0x20000214)  returns 0x00 (0000ms, 0674ms total)
T17EC 000:909 JLINK_WriteReg(R10, 0x00000000)  returns 0x00 (0000ms, 0674ms total)
T17EC 000:909 JLINK_WriteReg(R11, 0x00000000)  returns 0x00 (0000ms, 0674ms total)
T17EC 000:909 JLINK_WriteReg(R12, 0x00000000)  returns 0x00 (0000ms, 0674ms total)
T17EC 000:909 JLINK_WriteReg(R13 (SP), 0x20001000)  returns 0x00 (0000ms, 0674ms total)
T17EC 000:909 JLINK_WriteReg(R14, 0x20000001)  returns 0x00 (0000ms, 0674ms total)
T17EC 000:909 JLINK_WriteReg(R15 (PC), 0x200000FA)  returns 0x00 (0000ms, 0674ms total)
T17EC 000:909 JLINK_WriteReg(XPSR, 0x01000000)  returns 0x00 (0000ms, 0674ms total)
T17EC 000:909 JLINK_WriteReg(MSP, 0x20001000)  returns 0x00 (0000ms, 0674ms total)
T17EC 000:909 JLINK_WriteReg(PSP, 0x20001000)  returns 0x00 (0000ms, 0674ms total)
T17EC 000:909 JLINK_WriteReg(CFBP, 0x00000000)  returns 0x00 (0000ms, 0674ms total)
T17EC 000:909 JLINK_SetBPEx(Addr = 0x20000000, Type = 0xFFFFFFF2)  returns 0x0000000C (0000ms, 0674ms total)
T17EC 000:909 JLINK_Go() (0003ms, 0677ms total)
T17EC 000:912 JLINK_IsHalted() -- CPU_ReadMem(2 bytes @ 0x20000000)  returns TRUE (0007ms, 0684ms total)
T17EC 000:919 JLINK_ReadReg(R15 (PC))  returns 0x20000000 (0000ms, 0677ms total)
T17EC 000:919 JLINK_ClrBPEx(BPHandle = 0x0000000C)  returns 0x00 (0000ms, 0677ms total)
T17EC 000:919 JLINK_ReadReg(R0)  returns 0x00000001 (0000ms, 0677ms total)
T17EC 000:919 JLINK_WriteReg(R0, 0x08000D00)  returns 0x00 (0000ms, 0677ms total)
T17EC 000:919 JLINK_WriteReg(R1, 0x00000100)  returns 0x00 (0000ms, 0677ms total)
T17EC 000:919 JLINK_WriteReg(R2, 0x00000000)  returns 0x00 (0001ms, 0678ms total)
T17EC 000:920 JLINK_WriteReg(R3, 0x00000000)  returns 0x00 (0000ms, 0678ms total)
T17EC 000:920 JLINK_WriteReg(R4, 0x00000000)  returns 0x00 (0000ms, 0678ms total)
T17EC 000:920 JLINK_WriteReg(R5, 0x00000000)  returns 0x00 (0000ms, 0678ms total)
T17EC 000:920 JLINK_WriteReg(R6, 0x00000000)  returns 0x00 (0000ms, 0678ms total)
T17EC 000:920 JLINK_WriteReg(R7, 0x00000000)  returns 0x00 (0000ms, 0678ms total)
T17EC 000:920 JLINK_WriteReg(R8, 0x00000000)  returns 0x00 (0000ms, 0678ms total)
T17EC 000:920 JLINK_WriteReg(R9, 0x20000214)  returns 0x00 (0000ms, 0678ms total)
T17EC 000:920 JLINK_WriteReg(R10, 0x00000000)  returns 0x00 (0000ms, 0678ms total)
T17EC 000:920 JLINK_WriteReg(R11, 0x00000000)  returns 0x00 (0000ms, 0678ms total)
T17EC 000:920 JLINK_WriteReg(R12, 0x00000000)  returns 0x00 (0000ms, 0678ms total)
T17EC 000:920 JLINK_WriteReg(R13 (SP), 0x20001000)  returns 0x00 (0000ms, 0678ms total)
T17EC 000:920 JLINK_WriteReg(R14, 0x20000001)  returns 0x00 (0000ms, 0678ms total)
T17EC 000:920 JLINK_WriteReg(R15 (PC), 0x200000A8)  returns 0x00 (0000ms, 0678ms total)
T17EC 000:920 JLINK_WriteReg(XPSR, 0x01000000)  returns 0x00 (0000ms, 0678ms total)
T17EC 000:920 JLINK_WriteReg(MSP, 0x20001000)  returns 0x00 (0000ms, 0678ms total)
T17EC 000:920 JLINK_WriteReg(PSP, 0x20001000)  returns 0x00 (0000ms, 0678ms total)
T17EC 000:920 JLINK_WriteReg(CFBP, 0x00000000)  returns 0x00 (0000ms, 0678ms total)
T17EC 000:920 JLINK_SetBPEx(Addr = 0x20000000, Type = 0xFFFFFFF2)  returns 0x0000000D (0000ms, 0678ms total)
T17EC 000:920 JLINK_Go() (0003ms, 0681ms total)
T17EC 000:923 JLINK_IsHalted()  returns FALSE (0001ms, 0682ms total)
T17EC 000:925 JLINK_IsHalted()  returns FALSE (0000ms, 0681ms total)
T17EC 000:926 JLINK_IsHalted() -- CPU_ReadMem(2 bytes @ 0x20000000)  returns TRUE (0007ms, 0688ms total)
T17EC 000:933 JLINK_ReadReg(R15 (PC))  returns 0x20000000 (0000ms, 0681ms total)
T17EC 000:933 JLINK_ClrBPEx(BPHandle = 0x0000000D)  returns 0x00 (0000ms, 0681ms total)
T17EC 000:933 JLINK_ReadReg(R0)  returns 0x00000000 (0000ms, 0681ms total)
T17EC 000:933 JLINK_WriteReg(R0, 0x08000E00)  returns 0x00 (0001ms, 0682ms total)
T17EC 000:934 JLINK_WriteReg(R1, 0x00000100)  returns 0x00 (0000ms, 0682ms total)
T17EC 000:934 JLINK_WriteReg(R2, 0x00000000)  returns 0x00 (0000ms, 0682ms total)
T17EC 000:934 JLINK_WriteReg(R3, 0x00000000)  returns 0x00 (0000ms, 0682ms total)
T17EC 000:934 JLINK_WriteReg(R4, 0x00000000)  returns 0x00 (0000ms, 0682ms total)
T17EC 000:934 JLINK_WriteReg(R5, 0x00000000)  returns 0x00 (0000ms, 0682ms total)
T17EC 000:934 JLINK_WriteReg(R6, 0x00000000)  returns 0x00 (0000ms, 0682ms total)
T17EC 000:934 JLINK_WriteReg(R7, 0x00000000)  returns 0x00 (0000ms, 0682ms total)
T17EC 000:934 JLINK_WriteReg(R8, 0x00000000)  returns 0x00 (0000ms, 0682ms total)
T17EC 000:934 JLINK_WriteReg(R9, 0x20000214)  returns 0x00 (0000ms, 0682ms total)
T17EC 000:934 JLINK_WriteReg(R10, 0x00000000)  returns 0x00 (0000ms, 0682ms total)
T17EC 000:934 JLINK_WriteReg(R11, 0x00000000)  returns 0x00 (0000ms, 0682ms total)
T17EC 000:934 JLINK_WriteReg(R12, 0x00000000)  returns 0x00 (0000ms, 0682ms total)
T17EC 000:934 JLINK_WriteReg(R13 (SP), 0x20001000)  returns 0x00 (0000ms, 0682ms total)
T17EC 000:934 JLINK_WriteReg(R14, 0x20000001)  returns 0x00 (0000ms, 0682ms total)
T17EC 000:934 JLINK_WriteReg(R15 (PC), 0x200000FA)  returns 0x00 (0000ms, 0682ms total)
T17EC 000:934 JLINK_WriteReg(XPSR, 0x01000000)  returns 0x00 (0000ms, 0682ms total)
T17EC 000:934 JLINK_WriteReg(MSP, 0x20001000)  returns 0x00 (0000ms, 0682ms total)
T17EC 000:934 JLINK_WriteReg(PSP, 0x20001000)  returns 0x00 (0000ms, 0682ms total)
T17EC 000:934 JLINK_WriteReg(CFBP, 0x00000000)  returns 0x00 (0000ms, 0682ms total)
T17EC 000:934 JLINK_SetBPEx(Addr = 0x20000000, Type = 0xFFFFFFF2)  returns 0x0000000E (0000ms, 0682ms total)
T17EC 000:934 JLINK_Go() (0003ms, 0685ms total)
T17EC 000:937 JLINK_IsHalted() -- CPU_ReadMem(2 bytes @ 0x20000000)  returns TRUE (0007ms, 0692ms total)
T17EC 000:944 JLINK_ReadReg(R15 (PC))  returns 0x20000000 (0000ms, 0685ms total)
T17EC 000:944 JLINK_ClrBPEx(BPHandle = 0x0000000E)  returns 0x00 (0000ms, 0685ms total)
T17EC 000:944 JLINK_ReadReg(R0)  returns 0x00000001 (0000ms, 0685ms total)
T17EC 000:944 JLINK_WriteReg(R0, 0x08000E00)  returns 0x00 (0000ms, 0685ms total)
T17EC 000:944 JLINK_WriteReg(R1, 0x00000100)  returns 0x00 (0000ms, 0685ms total)
T17EC 000:944 JLINK_WriteReg(R2, 0x00000000)  returns 0x00 (0000ms, 0685ms total)
T17EC 000:944 JLINK_WriteReg(R3, 0x00000000)  returns 0x00 (0001ms, 0686ms total)
T17EC 000:945 JLINK_WriteReg(R4, 0x00000000)  returns 0x00 (0000ms, 0686ms total)
T17EC 000:945 JLINK_WriteReg(R5, 0x00000000)  returns 0x00 (0000ms, 0686ms total)
T17EC 000:945 JLINK_WriteReg(R6, 0x00000000)  returns 0x00 (0000ms, 0686ms total)
T17EC 000:945 JLINK_WriteReg(R7, 0x00000000)  returns 0x00 (0000ms, 0686ms total)
T17EC 000:945 JLINK_WriteReg(R8, 0x00000000)  returns 0x00 (0000ms, 0686ms total)
T17EC 000:945 JLINK_WriteReg(R9, 0x20000214)  returns 0x00 (0000ms, 0686ms total)
T17EC 000:945 JLINK_WriteReg(R10, 0x00000000)  returns 0x00 (0000ms, 0686ms total)
T17EC 000:945 JLINK_WriteReg(R11, 0x00000000)  returns 0x00 (0000ms, 0686ms total)
T17EC 000:945 JLINK_WriteReg(R12, 0x00000000)  returns 0x00 (0000ms, 0686ms total)
T17EC 000:945 JLINK_WriteReg(R13 (SP), 0x20001000)  returns 0x00 (0000ms, 0686ms total)
T17EC 000:945 JLINK_WriteReg(R14, 0x20000001)  returns 0x00 (0000ms, 0686ms total)
T17EC 000:945 JLINK_WriteReg(R15 (PC), 0x200000A8)  returns 0x00 (0000ms, 0686ms total)
T17EC 000:945 JLINK_WriteReg(XPSR, 0x01000000)  returns 0x00 (0000ms, 0686ms total)
T17EC 000:945 JLINK_WriteReg(MSP, 0x20001000)  returns 0x00 (0000ms, 0686ms total)
T17EC 000:945 JLINK_WriteReg(PSP, 0x20001000)  returns 0x00 (0000ms, 0686ms total)
T17EC 000:945 JLINK_WriteReg(CFBP, 0x00000000)  returns 0x00 (0000ms, 0686ms total)
T17EC 000:945 JLINK_SetBPEx(Addr = 0x20000000, Type = 0xFFFFFFF2)  returns 0x0000000F (0000ms, 0686ms total)
T17EC 000:945 JLINK_Go() (0003ms, 0689ms total)
T17EC 000:948 JLINK_IsHalted()  returns FALSE (0000ms, 0689ms total)
T17EC 000:954 JLINK_IsHalted() -- CPU_ReadMem(2 bytes @ 0x20000000)  returns TRUE (0007ms, 0696ms total)
T17EC 000:961 JLINK_ReadReg(R15 (PC))  returns 0x20000000 (0000ms, 0689ms total)
T17EC 000:961 JLINK_ClrBPEx(BPHandle = 0x0000000F)  returns 0x00 (0000ms, 0689ms total)
T17EC 000:961 JLINK_ReadReg(R0)  returns 0x00000000 (0000ms, 0689ms total)
T17EC 000:961 JLINK_WriteReg(R0, 0x08000F00)  returns 0x00 (0000ms, 0689ms total)
T17EC 000:961 JLINK_WriteReg(R1, 0x00000100)  returns 0x00 (0000ms, 0689ms total)
T17EC 000:961 JLINK_WriteReg(R2, 0x00000000)  returns 0x00 (0000ms, 0689ms total)
T17EC 000:961 JLINK_WriteReg(R3, 0x00000000)  returns 0x00 (0001ms, 0690ms total)
T17EC 000:962 JLINK_WriteReg(R4, 0x00000000)  returns 0x00 (0000ms, 0690ms total)
T17EC 000:962 JLINK_WriteReg(R5, 0x00000000)  returns 0x00 (0000ms, 0690ms total)
T17EC 000:962 JLINK_WriteReg(R6, 0x00000000)  returns 0x00 (0000ms, 0690ms total)
T17EC 000:962 JLINK_WriteReg(R7, 0x00000000)  returns 0x00 (0000ms, 0690ms total)
T17EC 000:962 JLINK_WriteReg(R8, 0x00000000)  returns 0x00 (0000ms, 0690ms total)
T17EC 000:962 JLINK_WriteReg(R9, 0x20000214)  returns 0x00 (0000ms, 0690ms total)
T17EC 000:962 JLINK_WriteReg(R10, 0x00000000)  returns 0x00 (0000ms, 0690ms total)
T17EC 000:962 JLINK_WriteReg(R11, 0x00000000)  returns 0x00 (0000ms, 0690ms total)
T17EC 000:962 JLINK_WriteReg(R12, 0x00000000)  returns 0x00 (0000ms, 0690ms total)
T17EC 000:962 JLINK_WriteReg(R13 (SP), 0x20001000)  returns 0x00 (0000ms, 0690ms total)
T17EC 000:962 JLINK_WriteReg(R14, 0x20000001)  returns 0x00 (0000ms, 0690ms total)
T17EC 000:962 JLINK_WriteReg(R15 (PC), 0x200000FA)  returns 0x00 (0000ms, 0690ms total)
T17EC 000:962 JLINK_WriteReg(XPSR, 0x01000000)  returns 0x00 (0000ms, 0690ms total)
T17EC 000:962 JLINK_WriteReg(MSP, 0x20001000)  returns 0x00 (0000ms, 0690ms total)
T17EC 000:962 JLINK_WriteReg(PSP, 0x20001000)  returns 0x00 (0000ms, 0690ms total)
T17EC 000:962 JLINK_WriteReg(CFBP, 0x00000000)  returns 0x00 (0000ms, 0690ms total)
T17EC 000:962 JLINK_SetBPEx(Addr = 0x20000000, Type = 0xFFFFFFF2)  returns 0x00000010 (0000ms, 0690ms total)
T17EC 000:962 JLINK_Go() (0003ms, 0693ms total)
T17EC 000:965 JLINK_IsHalted() -- CPU_ReadMem(2 bytes @ 0x20000000)  returns TRUE (0007ms, 0700ms total)
T17EC 000:972 JLINK_ReadReg(R15 (PC))  returns 0x20000000 (0000ms, 0693ms total)
T17EC 000:972 JLINK_ClrBPEx(BPHandle = 0x00000010)  returns 0x00 (0000ms, 0693ms total)
T17EC 000:972 JLINK_ReadReg(R0)  returns 0x00000001 (0000ms, 0693ms total)
T17EC 000:972 JLINK_WriteReg(R0, 0x08000F00)  returns 0x00 (0000ms, 0693ms total)
T17EC 000:972 JLINK_WriteReg(R1, 0x00000100)  returns 0x00 (0000ms, 0693ms total)
T17EC 000:972 JLINK_WriteReg(R2, 0x00000000)  returns 0x00 (0000ms, 0693ms total)
T17EC 000:972 JLINK_WriteReg(R3, 0x00000000)  returns 0x00 (0000ms, 0693ms total)
T17EC 000:972 JLINK_WriteReg(R4, 0x00000000)  returns 0x00 (0000ms, 0693ms total)
T17EC 000:972 JLINK_WriteReg(R5, 0x00000000)  returns 0x00 (0000ms, 0693ms total)
T17EC 000:972 JLINK_WriteReg(R6, 0x00000000)  returns 0x00 (0001ms, 0694ms total)
T17EC 000:973 JLINK_WriteReg(R7, 0x00000000)  returns 0x00 (0000ms, 0694ms total)
T17EC 000:973 JLINK_WriteReg(R8, 0x00000000)  returns 0x00 (0000ms, 0694ms total)
T17EC 000:973 JLINK_WriteReg(R9, 0x20000214)  returns 0x00 (0000ms, 0694ms total)
T17EC 000:973 JLINK_WriteReg(R10, 0x00000000)  returns 0x00 (0000ms, 0694ms total)
T17EC 000:973 JLINK_WriteReg(R11, 0x00000000)  returns 0x00 (0000ms, 0694ms total)
T17EC 000:973 JLINK_WriteReg(R12, 0x00000000)  returns 0x00 (0000ms, 0694ms total)
T17EC 000:973 JLINK_WriteReg(R13 (SP), 0x20001000)  returns 0x00 (0000ms, 0694ms total)
T17EC 000:973 JLINK_WriteReg(R14, 0x20000001)  returns 0x00 (0000ms, 0694ms total)
T17EC 000:973 JLINK_WriteReg(R15 (PC), 0x200000A8)  returns 0x00 (0000ms, 0694ms total)
T17EC 000:973 JLINK_WriteReg(XPSR, 0x01000000)  returns 0x00 (0000ms, 0694ms total)
T17EC 000:973 JLINK_WriteReg(MSP, 0x20001000)  returns 0x00 (0000ms, 0694ms total)
T17EC 000:973 JLINK_WriteReg(PSP, 0x20001000)  returns 0x00 (0000ms, 0694ms total)
T17EC 000:973 JLINK_WriteReg(CFBP, 0x00000000)  returns 0x00 (0000ms, 0694ms total)
T17EC 000:973 JLINK_SetBPEx(Addr = 0x20000000, Type = 0xFFFFFFF2)  returns 0x00000011 (0000ms, 0694ms total)
T17EC 000:973 JLINK_Go() (0002ms, 0696ms total)
T17EC 000:975 JLINK_IsHalted()  returns FALSE (0001ms, 0697ms total)
T17EC 000:981 JLINK_IsHalted() -- CPU_ReadMem(2 bytes @ 0x20000000)  returns TRUE (0007ms, 0703ms total)
T17EC 000:988 JLINK_ReadReg(R15 (PC))  returns 0x20000000 (0000ms, 0696ms total)
T17EC 000:988 JLINK_ClrBPEx(BPHandle = 0x00000011)  returns 0x00 (0000ms, 0696ms total)
T17EC 000:988 JLINK_ReadReg(R0)  returns 0x00000000 (0000ms, 0696ms total)
T17EC 000:988 JLINK_WriteReg(R0, 0x08001000)  returns 0x00 (0000ms, 0696ms total)
T17EC 000:988 JLINK_WriteReg(R1, 0x00000100)  returns 0x00 (0000ms, 0696ms total)
T17EC 000:988 JLINK_WriteReg(R2, 0x00000000)  returns 0x00 (0000ms, 0696ms total)
T17EC 000:988 JLINK_WriteReg(R3, 0x00000000)  returns 0x00 (0000ms, 0696ms total)
T17EC 000:989 JLINK_WriteReg(R4, 0x00000000)  returns 0x00 (0000ms, 0697ms total)
T17EC 000:989 JLINK_WriteReg(R5, 0x00000000)  returns 0x00 (0000ms, 0697ms total)
T17EC 000:989 JLINK_WriteReg(R6, 0x00000000)  returns 0x00 (0000ms, 0697ms total)
T17EC 000:989 JLINK_WriteReg(R7, 0x00000000)  returns 0x00 (0000ms, 0697ms total)
T17EC 000:989 JLINK_WriteReg(R8, 0x00000000)  returns 0x00 (0000ms, 0697ms total)
T17EC 000:989 JLINK_WriteReg(R9, 0x20000214)  returns 0x00 (0000ms, 0697ms total)
T17EC 000:989 JLINK_WriteReg(R10, 0x00000000)  returns 0x00 (0000ms, 0697ms total)
T17EC 000:989 JLINK_WriteReg(R11, 0x00000000)  returns 0x00 (0000ms, 0697ms total)
T17EC 000:989 JLINK_WriteReg(R12, 0x00000000)  returns 0x00 (0000ms, 0697ms total)
T17EC 000:989 JLINK_WriteReg(R13 (SP), 0x20001000)  returns 0x00 (0000ms, 0697ms total)
T17EC 000:989 JLINK_WriteReg(R14, 0x20000001)  returns 0x00 (0000ms, 0697ms total)
T17EC 000:989 JLINK_WriteReg(R15 (PC), 0x200000FA)  returns 0x00 (0000ms, 0697ms total)
T17EC 000:989 JLINK_WriteReg(XPSR, 0x01000000)  returns 0x00 (0000ms, 0697ms total)
T17EC 000:989 JLINK_WriteReg(MSP, 0x20001000)  returns 0x00 (0000ms, 0697ms total)
T17EC 000:989 JLINK_WriteReg(PSP, 0x20001000)  returns 0x00 (0000ms, 0697ms total)
T17EC 000:989 JLINK_WriteReg(CFBP, 0x00000000)  returns 0x00 (0000ms, 0697ms total)
T17EC 000:989 JLINK_SetBPEx(Addr = 0x20000000, Type = 0xFFFFFFF2)  returns 0x00000012 (0000ms, 0697ms total)
T17EC 000:989 JLINK_Go() (0003ms, 0700ms total)
T17EC 000:992 JLINK_IsHalted() -- CPU_ReadMem(2 bytes @ 0x20000000)  returns TRUE (0007ms, 0707ms total)
T17EC 000:999 JLINK_ReadReg(R15 (PC))  returns 0x20000000 (0000ms, 0700ms total)
T17EC 000:999 JLINK_ClrBPEx(BPHandle = 0x00000012)  returns 0x00 (0000ms, 0700ms total)
T17EC 000:999 JLINK_ReadReg(R0)  returns 0x00000001 (0000ms, 0700ms total)
T17EC 000:999 JLINK_WriteReg(R0, 0x08001000)  returns 0x00 (0000ms, 0700ms total)
T17EC 000:999 JLINK_WriteReg(R1, 0x00000100)  returns 0x00 (0000ms, 0700ms total)
T17EC 000:999 JLINK_WriteReg(R2, 0x00000000)  returns 0x00 (0000ms, 0700ms total)
T17EC 000:999 JLINK_WriteReg(R3, 0x00000000)  returns 0x00 (0000ms, 0700ms total)
T17EC 000:999 JLINK_WriteReg(R4, 0x00000000)  returns 0x00 (0000ms, 0700ms total)
T17EC 000:999 JLINK_WriteReg(R5, 0x00000000)  returns 0x00 (0001ms, 0701ms total)
T17EC 001:000 JLINK_WriteReg(R6, 0x00000000)  returns 0x00 (0000ms, 0701ms total)
T17EC 001:000 JLINK_WriteReg(R7, 0x00000000)  returns 0x00 (0000ms, 0701ms total)
T17EC 001:000 JLINK_WriteReg(R8, 0x00000000)  returns 0x00 (0000ms, 0701ms total)
T17EC 001:000 JLINK_WriteReg(R9, 0x20000214)  returns 0x00 (0000ms, 0701ms total)
T17EC 001:000 JLINK_WriteReg(R10, 0x00000000)  returns 0x00 (0000ms, 0701ms total)
T17EC 001:000 JLINK_WriteReg(R11, 0x00000000)  returns 0x00 (0000ms, 0701ms total)
T17EC 001:000 JLINK_WriteReg(R12, 0x00000000)  returns 0x00 (0000ms, 0701ms total)
T17EC 001:000 JLINK_WriteReg(R13 (SP), 0x20001000)  returns 0x00 (0000ms, 0701ms total)
T17EC 001:000 JLINK_WriteReg(R14, 0x20000001)  returns 0x00 (0000ms, 0701ms total)
T17EC 001:000 JLINK_WriteReg(R15 (PC), 0x200000A8)  returns 0x00 (0000ms, 0701ms total)
T17EC 001:000 JLINK_WriteReg(XPSR, 0x01000000)  returns 0x00 (0000ms, 0701ms total)
T17EC 001:000 JLINK_WriteReg(MSP, 0x20001000)  returns 0x00 (0000ms, 0701ms total)
T17EC 001:000 JLINK_WriteReg(PSP, 0x20001000)  returns 0x00 (0000ms, 0701ms total)
T17EC 001:000 JLINK_WriteReg(CFBP, 0x00000000)  returns 0x00 (0000ms, 0701ms total)
T17EC 001:000 JLINK_SetBPEx(Addr = 0x20000000, Type = 0xFFFFFFF2)  returns 0x00000013 (0000ms, 0701ms total)
T17EC 001:000 JLINK_Go() (0003ms, 0704ms total)
T17EC 001:003 JLINK_IsHalted()  returns FALSE (0001ms, 0705ms total)
T17EC 001:071 JLINK_IsHalted() -- CPU_ReadMem(2 bytes @ 0x20000000)  returns TRUE (0006ms, 0710ms total)
T17EC 001:077 JLINK_ReadReg(R15 (PC))  returns 0x20000000 (0000ms, 0704ms total)
T17EC 001:077 JLINK_ClrBPEx(BPHandle = 0x00000013)  returns 0x00 (0000ms, 0704ms total)
T17EC 001:077 JLINK_ReadReg(R0)  returns 0x00000000 (0000ms, 0704ms total)
T17EC 001:077 JLINK_WriteReg(R0, 0x08001100)  returns 0x00 (0000ms, 0704ms total)
T17EC 001:077 JLINK_WriteReg(R1, 0x00000100)  returns 0x00 (0000ms, 0704ms total)
T17EC 001:077 JLINK_WriteReg(R2, 0x00000000)  returns 0x00 (0000ms, 0704ms total)
T17EC 001:077 JLINK_WriteReg(R3, 0x00000000)  returns 0x00 (0000ms, 0704ms total)
T17EC 001:077 JLINK_WriteReg(R4, 0x00000000)  returns 0x00 (0000ms, 0704ms total)
